       * /home/tiw.rahul45/esim-workspace/logicwithsram/logicwithsram.cir
       Transient Analysis  Sun Oct  9 02:18:41  2022
--------------------------------------------------------------------------------
Index   time                            logic           m.x11.xsc1.msky 
--------------------------------------------------------------------------------
0	0.000000e+00	0.000000e+00	5.000000e+00	1.800000e+00	
1	5.000000e-11	0.000000e+00	5.000000e+00	1.799998e+00	
2	1.000000e-10	0.000000e+00	5.000000e+00	1.799998e+00	
3	2.000000e-10	0.000000e+00	5.000000e+00	1.799999e+00	
4	4.000000e-10	0.000000e+00	5.000000e+00	1.799999e+00	
5	8.000000e-10	0.000000e+00	5.000000e+00	1.800000e+00	
6	1.600000e-09	0.000000e+00	5.000000e+00	1.800000e+00	
7	2.443205e-09	0.000000e+00	5.000000e+00	1.800000e+00	
8	2.895561e-09	0.000000e+00	5.000000e+00	1.800000e+00	
9	3.384990e-09	0.000000e+00	5.000000e+00	1.800000e+00	
10	3.676953e-09	0.000000e+00	5.000000e+00	1.800000e+00	
11	3.902786e-09	0.000000e+00	5.000000e+00	1.800000e+00	
12	4.081664e-09	0.000000e+00	5.000000e+00	1.800000e+00	
13	4.237185e-09	0.000000e+00	5.000000e+00	1.800001e+00	
14	4.412265e-09	0.000000e+00	5.000000e+00	1.800001e+00	
15	4.443205e-09	0.000000e+00	5.000000e+00	1.800001e+00	
16	4.461318e-09	0.000000e+00	4.909436e+00	1.800001e+00	
17	4.497544e-09	0.000000e+00	4.728307e+00	1.799999e+00	
18	4.569995e-09	0.000000e+00	4.366049e+00	1.800001e+00	
19	4.673734e-09	0.000000e+00	3.847356e+00	1.799999e+00	
20	4.781313e-09	0.000000e+00	3.309463e+00	1.800002e+00	
21	4.903207e-09	0.000000e+00	2.699993e+00	1.800000e+00	
22	5.000000e-09	0.000000e+00	2.216026e+00	1.800003e+00	
23	5.015719e-09	0.000000e+00	2.137429e+00	1.800002e+00	
24	5.047158e-09	0.000000e+00	1.980236e+00	1.800002e+00	
25	5.110035e-09	0.000000e+00	1.665849e+00	1.800003e+00	
26	5.235790e-09	0.000000e+00	1.037077e+00	1.800004e+00	
27	5.398564e-09	0.000000e+00	2.232072e-01	1.800009e+00	
28	5.443205e-09	0.000000e+00	0.000000e+00	1.800012e+00	
29	5.464809e-09	0.000000e+00	0.000000e+00	1.800011e+00	
30	5.508016e-09	0.000000e+00	0.000000e+00	1.800014e+00	
31	5.594430e-09	0.000000e+00	0.000000e+00	1.800010e+00	
32	5.707897e-09	0.000000e+00	0.000000e+00	1.800022e+00	
33	5.817265e-09	0.000000e+00	0.000000e+00	1.800060e+00	
34	5.941257e-09	0.000000e+00	0.000000e+00	1.800020e+00	
35	5.995421e-09	0.000000e+00	0.000000e+00	1.800036e+00	
36	6.050649e-09	0.000000e+00	0.000000e+00	1.799986e+00	
37	6.117953e-09	0.000000e+00	0.000000e+00	1.800049e+00	
38	6.192209e-09	0.000000e+00	0.000000e+00	1.800002e+00	
39	6.266490e-09	0.000000e+00	0.000000e+00	1.800059e+00	
40	6.342750e-09	0.000000e+00	0.000000e+00	1.799994e+00	
41	6.418532e-09	0.000000e+00	0.000000e+00	1.800051e+00	
42	6.549450e-09	0.000000e+00	0.000000e+00	1.799988e+00	
43	6.686428e-09	0.000000e+00	0.000000e+00	1.800042e+00	
44	6.883433e-09	0.000000e+00	0.000000e+00	1.799978e+00	
45	7.126137e-09	0.000000e+00	0.000000e+00	1.800033e+00	
46	7.611544e-09	0.000000e+00	0.000000e+00	1.799972e+00	
47	8.190404e-09	0.000000e+00	0.000000e+00	1.800029e+00	
48	8.266490e-09	0.000000e+00	0.000000e+00	1.799971e+00	
49	8.359530e-09	0.000000e+00	4.651995e-01	1.800000e+00	
50	8.545610e-09	0.000000e+00	1.395598e+00	1.800000e+00	
51	8.917769e-09	0.000000e+00	3.256396e+00	1.800000e+00	
52	9.266490e-09	0.000000e+00	5.000000e+00	1.800000e+00	
53	9.340922e-09	0.000000e+00	5.000000e+00	1.800000e+00	
54	9.489786e-09	0.000000e+00	5.000000e+00	1.800000e+00	

Index   time                            logic           m.x11.xsc1.msky 
--------------------------------------------------------------------------------
55	9.787513e-09	0.000000e+00	5.000000e+00	1.800000e+00	
56	1.038297e-08	0.000000e+00	5.000000e+00	1.800000e+00	
57	1.157388e-08	0.000000e+00	5.000000e+00	1.800000e+00	
58	1.395570e-08	0.000000e+00	5.000000e+00	1.800000e+00	
59	1.871934e-08	0.000000e+00	5.000000e+00	1.800000e+00	
60	2.824663e-08	0.000000e+00	5.000000e+00	1.800000e+00	
61	4.730120e-08	0.000000e+00	5.000000e+00	1.800000e+00	
62	6.730120e-08	0.000000e+00	5.000000e+00	1.800000e+00	
63	8.730120e-08	0.000000e+00	5.000000e+00	1.800000e+00	
64	1.050000e-07	0.000000e+00	5.000000e+00	1.800000e+00	
65	1.051948e-07	0.000000e+00	5.000000e+00	1.800003e+00	
66	1.055844e-07	0.000000e+00	5.000000e+00	1.800001e+00	
67	1.061580e-07	0.000000e+00	5.000000e+00	1.800001e+00	
68	1.067393e-07	0.000000e+00	5.000000e+00	1.800002e+00	
69	1.073362e-07	0.000000e+00	5.000000e+00	1.800003e+00	
70	1.080352e-07	0.000000e+00	5.000000e+00	1.800002e+00	
71	1.086839e-07	0.000000e+00	5.000000e+00	1.800001e+00	
72	1.094686e-07	0.000000e+00	5.000000e+00	1.800000e+00	
73	1.100000e-07	0.000000e+00	5.000000e+00	1.800000e+00	
74	1.100973e-07	0.000000e+00	5.000000e+00	1.800000e+00	
75	1.102920e-07	0.000000e+00	5.000000e+00	1.800000e+00	
76	1.106814e-07	0.000000e+00	5.000000e+00	1.800000e+00	
77	1.114601e-07	0.000000e+00	5.000000e+00	1.800000e+00	
78	1.130175e-07	0.000000e+00	5.000000e+00	1.800000e+00	
79	1.161323e-07	0.000000e+00	5.000000e+00	1.800000e+00	
80	1.223620e-07	0.000000e+00	5.000000e+00	1.800000e+00	
81	1.348214e-07	0.000000e+00	5.000000e+00	1.800000e+00	
82	1.548214e-07	0.000000e+00	5.000000e+00	1.800000e+00	
83	1.748214e-07	0.000000e+00	5.000000e+00	1.800000e+00	
84	1.948214e-07	0.000000e+00	5.000000e+00	1.800000e+00	
85	1.950000e-07	0.000000e+00	5.000000e+00	1.800000e+00	
86	1.952756e-07	0.000000e+00	5.000000e+00	1.800000e+00	
87	1.958269e-07	0.000000e+00	5.000000e+00	1.800000e+00	
88	1.967616e-07	0.000000e+00	5.000000e+00	1.800000e+00	
89	1.986309e-07	0.000000e+00	5.000000e+00	1.800000e+00	
90	2.000000e-07	0.000000e+00	5.000000e+00	1.800000e+00	
91	2.003739e-07	0.000000e+00	5.000000e+00	1.800000e+00	
92	2.011216e-07	0.000000e+00	5.000000e+00	1.800000e+00	
93	2.026171e-07	0.000000e+00	5.000000e+00	1.800000e+00	
94	2.056081e-07	0.000000e+00	5.000000e+00	1.800000e+00	
95	2.115900e-07	0.000000e+00	5.000000e+00	1.800000e+00	
96	2.235538e-07	0.000000e+00	5.000000e+00	1.800000e+00	
97	2.435538e-07	0.000000e+00	5.000000e+00	1.800000e+00	
98	2.550000e-07	0.000000e+00	5.000000e+00	1.800000e+00	
99	2.555000e-07	0.000000e+00	5.000000e+00	1.800000e+00	
100	2.565000e-07	0.000000e+00	5.000000e+00	1.800000e+00	
101	2.585000e-07	0.000000e+00	5.000000e+00	1.800000e+00	
102	2.600000e-07	0.000000e+00	5.000000e+00	1.800000e+00	
103	2.604000e-07	0.000000e+00	5.000000e+00	1.800000e+00	
104	2.605000e-07	0.000000e+00	5.000000e+00	1.800000e+00	
105	2.605800e-07	0.000000e+00	4.600000e+00	1.800000e+00	
106	2.607400e-07	0.000000e+00	3.800000e+00	1.800000e+00	
107	2.610600e-07	0.000000e+00	2.200000e+00	1.800000e+00	
108	2.615000e-07	0.000000e+00	0.000000e+00	1.800000e+00	
109	2.615640e-07	0.000000e+00	0.000000e+00	1.800000e+00	
110	2.616920e-07	0.000000e+00	0.000000e+00	1.800000e+00	
111	2.619480e-07	0.000000e+00	0.000000e+00	1.800000e+00	
112	2.624600e-07	0.000000e+00	0.000000e+00	1.800000e+00	

Index   time                            logic           m.x11.xsc1.msky 
--------------------------------------------------------------------------------
113	2.634840e-07	0.000000e+00	0.000000e+00	1.800000e+00	
114	2.655320e-07	0.000000e+00	0.000000e+00	1.800000e+00	
115	2.696280e-07	0.000000e+00	0.000000e+00	1.800000e+00	
116	2.778200e-07	0.000000e+00	0.000000e+00	1.800000e+00	
117	2.942040e-07	0.000000e+00	0.000000e+00	1.800000e+00	
118	3.142040e-07	0.000000e+00	0.000000e+00	1.800000e+00	
119	3.342040e-07	0.000000e+00	0.000000e+00	1.800000e+00	
120	3.542040e-07	0.000000e+00	0.000000e+00	1.800000e+00	
121	3.742040e-07	0.000000e+00	0.000000e+00	1.800000e+00	
122	3.942040e-07	0.000000e+00	0.000000e+00	1.800000e+00	
123	4.142040e-07	0.000000e+00	0.000000e+00	1.800000e+00	
124	4.342040e-07	0.000000e+00	0.000000e+00	1.800000e+00	
125	4.542040e-07	0.000000e+00	0.000000e+00	1.800000e+00	
126	4.550000e-07	0.000000e+00	0.000000e+00	1.800000e+00	
127	4.550578e-07	0.000000e+00	0.000000e+00	1.800001e+00	
128	4.551735e-07	0.000000e+00	0.000000e+00	1.800001e+00	
129	4.554048e-07	0.000000e+00	0.000000e+00	1.800001e+00	
130	4.558675e-07	0.000000e+00	0.000000e+00	1.800002e+00	
131	4.566738e-07	0.000000e+00	0.000000e+00	1.800002e+00	
132	4.572203e-07	0.000000e+00	0.000000e+00	1.799979e+00	
133	4.575905e-07	0.000000e+00	0.000000e+00	1.799959e+00	
134	4.579996e-07	0.000000e+00	0.000000e+00	1.799946e+00	
135	4.583558e-07	0.000000e+00	0.000000e+00	1.799964e+00	
136	4.585371e-07	0.000000e+00	0.000000e+00	1.799980e+00	
137	4.587021e-07	0.000000e+00	0.000000e+00	1.799988e+00	
138	4.588787e-07	0.000000e+00	0.000000e+00	1.799993e+00	
139	4.590674e-07	0.000000e+00	0.000000e+00	1.799994e+00	
140	4.592443e-07	0.000000e+00	0.000000e+00	1.800001e+00	
141	4.594674e-07	0.000000e+00	0.000000e+00	1.799998e+00	
142	4.596170e-07	0.000000e+00	0.000000e+00	1.800006e+00	
143	4.597735e-07	0.000000e+00	0.000000e+00	1.800009e+00	
144	4.598991e-07	0.000000e+00	0.000000e+00	1.800040e+00	
145	4.600000e-07	0.000000e+00	0.000000e+00	1.800009e+00	
146	4.600133e-07	0.000000e+00	0.000000e+00	1.800025e+00	
147	4.600400e-07	0.000000e+00	0.000000e+00	1.800023e+00	
148	4.600933e-07	0.000000e+00	0.000000e+00	1.800021e+00	
149	4.601999e-07	0.000000e+00	0.000000e+00	1.800017e+00	
150	4.604131e-07	0.000000e+00	0.000000e+00	1.800009e+00	
151	4.607528e-07	0.000000e+00	0.000000e+00	1.800003e+00	
152	4.611259e-07	0.000000e+00	0.000000e+00	1.800000e+00	
153	4.615958e-07	0.000000e+00	0.000000e+00	1.800000e+00	
154	4.616170e-07	0.000000e+00	0.000000e+00	1.800000e+00	
155	4.616596e-07	0.000000e+00	2.127036e-01	1.800000e+00	
156	4.617446e-07	0.000000e+00	6.381108e-01	1.800000e+00	
157	4.619148e-07	0.000000e+00	1.488925e+00	1.800000e+00	
158	4.622551e-07	0.000000e+00	3.190554e+00	1.800000e+00	
159	4.626170e-07	0.000000e+00	5.000000e+00	1.800000e+00	
160	4.626851e-07	0.000000e+00	5.000000e+00	1.800000e+00	
161	4.628212e-07	0.000000e+00	5.000000e+00	1.800000e+00	
162	4.630935e-07	0.000000e+00	5.000000e+00	1.800000e+00	
163	4.636380e-07	0.000000e+00	5.000000e+00	1.800000e+00	
164	4.647270e-07	0.000000e+00	5.000000e+00	1.800000e+00	
165	4.669051e-07	0.000000e+00	5.000000e+00	1.800000e+00	
166	4.712613e-07	0.000000e+00	5.000000e+00	1.800000e+00	
167	4.799736e-07	0.000000e+00	5.000000e+00	1.800000e+00	
168	4.973983e-07	0.000000e+00	5.000000e+00	1.800000e+00	
169	5.000000e-07	0.000000e+00	5.000000e+00	1.800000e+00	
170	5.005000e-07	0.000000e+00	5.000000e+00	1.800000e+00	

Index   time                            logic           m.x11.xsc1.msky 
--------------------------------------------------------------------------------
171	5.015000e-07	0.000000e+00	5.000000e+00	1.800000e+00	
172	5.035000e-07	0.000000e+00	5.000000e+00	1.800000e+00	
173	5.050000e-07	0.000000e+00	5.000000e+00	1.800000e+00	
174	5.054000e-07	0.000000e+00	5.000000e+00	1.800000e+00	
175	5.055000e-07	0.000000e+00	5.000000e+00	1.800000e+00	
176	5.055800e-07	0.000000e+00	4.600000e+00	1.800000e+00	
177	5.057400e-07	0.000000e+00	3.800000e+00	1.800000e+00	
178	5.060600e-07	0.000000e+00	2.200000e+00	1.800000e+00	
179	5.065000e-07	0.000000e+00	1.536549e-13	1.800000e+00	
180	5.065640e-07	0.000000e+00	0.000000e+00	1.800000e+00	
181	5.066920e-07	0.000000e+00	0.000000e+00	1.800000e+00	
182	5.069480e-07	0.000000e+00	0.000000e+00	1.800000e+00	
183	5.074600e-07	0.000000e+00	0.000000e+00	1.800000e+00	
184	5.084840e-07	0.000000e+00	0.000000e+00	1.800000e+00	
185	5.105320e-07	0.000000e+00	0.000000e+00	1.800000e+00	
186	5.146280e-07	0.000000e+00	0.000000e+00	1.800000e+00	
187	5.228200e-07	0.000000e+00	0.000000e+00	1.800000e+00	
188	5.392040e-07	0.000000e+00	0.000000e+00	1.800000e+00	
189	5.592040e-07	0.000000e+00	0.000000e+00	1.800000e+00	
190	5.792040e-07	0.000000e+00	0.000000e+00	1.800000e+00	
191	5.992040e-07	0.000000e+00	0.000000e+00	1.800000e+00	
192	6.192040e-07	0.000000e+00	0.000000e+00	1.800000e+00	
193	6.392040e-07	0.000000e+00	0.000000e+00	1.800000e+00	
194	6.592040e-07	0.000000e+00	0.000000e+00	1.800000e+00	
195	6.792040e-07	0.000000e+00	0.000000e+00	1.800000e+00	
196	6.992040e-07	0.000000e+00	0.000000e+00	1.800000e+00	
197	7.192040e-07	0.000000e+00	0.000000e+00	1.800000e+00	
198	7.392040e-07	0.000000e+00	0.000000e+00	1.800000e+00	
199	7.550000e-07	0.000000e+00	0.000000e+00	1.800000e+00	
200	7.555000e-07	0.000000e+00	0.000000e+00	1.800000e+00	
201	7.565000e-07	0.000000e+00	0.000000e+00	1.800000e+00	
202	7.585000e-07	0.000000e+00	0.000000e+00	1.800000e+00	
203	7.600000e-07	0.000000e+00	0.000000e+00	1.800000e+00	
204	7.604000e-07	0.000000e+00	0.000000e+00	1.800000e+00	
205	7.605000e-07	0.000000e+00	0.000000e+00	1.800000e+00	
206	7.605800e-07	0.000000e+00	4.000000e-01	1.800000e+00	
207	7.607400e-07	0.000000e+00	1.200000e+00	1.800000e+00	
208	7.610600e-07	0.000000e+00	2.800000e+00	1.800000e+00	
209	7.615000e-07	0.000000e+00	5.000000e+00	1.800000e+00	
210	7.615640e-07	0.000000e+00	5.000000e+00	1.800000e+00	
211	7.616920e-07	0.000000e+00	5.000000e+00	1.800000e+00	
212	7.619480e-07	0.000000e+00	5.000000e+00	1.800000e+00	
213	7.624600e-07	0.000000e+00	5.000000e+00	1.800000e+00	
214	7.634840e-07	0.000000e+00	5.000000e+00	1.800000e+00	
215	7.655320e-07	0.000000e+00	5.000000e+00	1.800000e+00	
216	7.696280e-07	0.000000e+00	5.000000e+00	1.800000e+00	
217	7.778200e-07	0.000000e+00	5.000000e+00	1.800000e+00	
218	7.942040e-07	0.000000e+00	5.000000e+00	1.800000e+00	
219	8.142040e-07	0.000000e+00	5.000000e+00	1.800000e+00	
220	8.342040e-07	0.000000e+00	5.000000e+00	1.800000e+00	
221	8.542040e-07	0.000000e+00	5.000000e+00	1.800000e+00	
222	8.742040e-07	0.000000e+00	5.000000e+00	1.800000e+00	
223	8.942040e-07	0.000000e+00	5.000000e+00	1.800000e+00	
224	9.142040e-07	0.000000e+00	5.000000e+00	1.800000e+00	
225	9.342040e-07	0.000000e+00	5.000000e+00	1.800000e+00	
226	9.542040e-07	0.000000e+00	5.000000e+00	1.800000e+00	
227	9.742040e-07	0.000000e+00	5.000000e+00	1.800000e+00	
228	9.942040e-07	0.000000e+00	5.000000e+00	1.800000e+00	

Index   time                            logic           m.x11.xsc1.msky 
--------------------------------------------------------------------------------
229	1.000000e-06	0.000000e+00	5.000000e+00	1.800000e+00	

       * /home/tiw.rahul45/esim-workspace/logicwithsram/logicwithsram.cir
       Transient Analysis  Sun Oct  9 02:18:41  2022
--------------------------------------------------------------------------------
Index   time            m.x11.xsc1.msky m.x11.xsc1.msky m.x11.xsc2.msky 
--------------------------------------------------------------------------------
0	0.000000e+00	1.800000e+00	1.800000e+00	2.318915e-11	
1	5.000000e-11	1.799999e+00	1.799999e+00	-6.26772e-06	
2	1.000000e-10	1.799999e+00	1.799999e+00	-6.64782e-06	
3	2.000000e-10	1.799999e+00	1.799999e+00	-6.92263e-06	
4	4.000000e-10	1.800000e+00	1.800000e+00	-6.94269e-06	
5	8.000000e-10	1.800000e+00	1.800000e+00	-7.46010e-06	
6	1.600000e-09	1.800000e+00	1.800000e+00	-8.09701e-06	
7	2.443205e-09	1.800000e+00	1.800000e+00	-9.01165e-06	
8	2.895561e-09	1.800000e+00	1.800000e+00	-8.94604e-06	
9	3.384990e-09	1.800000e+00	1.800000e+00	-8.90902e-06	
10	3.676953e-09	1.800000e+00	1.800000e+00	-9.18533e-06	
11	3.902786e-09	1.800000e+00	1.800000e+00	-1.00496e-05	
12	4.081664e-09	1.800000e+00	1.800000e+00	-8.41469e-06	
13	4.237185e-09	1.800000e+00	1.800000e+00	-3.62482e-06	
14	4.412265e-09	1.800001e+00	1.800001e+00	5.435744e-06	
15	4.443205e-09	1.800001e+00	1.800001e+00	7.695683e-06	
16	4.461318e-09	1.800001e+00	1.800001e+00	8.712467e-06	
17	4.497544e-09	1.800000e+00	1.800000e+00	1.191673e-05	
18	4.569995e-09	1.800001e+00	1.800001e+00	1.828808e-05	
19	4.673734e-09	1.800000e+00	1.800000e+00	3.001867e-05	
20	4.781313e-09	1.800001e+00	1.800001e+00	4.869890e-05	
21	4.903207e-09	1.800001e+00	1.800000e+00	6.992713e-05	
22	5.000000e-09	1.800002e+00	1.800002e+00	7.693538e-05	
23	5.015719e-09	1.800002e+00	1.800001e+00	8.469233e-05	
24	5.047158e-09	1.800002e+00	1.800001e+00	7.808333e-05	
25	5.110035e-09	1.800002e+00	1.800001e+00	7.336325e-05	
26	5.235790e-09	1.800003e+00	1.800002e+00	5.107055e-05	
27	5.398564e-09	1.800006e+00	1.800005e+00	2.767371e-05	
28	5.443205e-09	1.800007e+00	1.800006e+00	3.269381e-05	
29	5.464809e-09	1.800006e+00	1.800006e+00	2.862340e-05	
30	5.508016e-09	1.800007e+00	1.800007e+00	2.674027e-05	
31	5.594430e-09	1.800003e+00	1.800005e+00	2.470001e-05	
32	5.707897e-09	1.800004e+00	1.800011e+00	2.383969e-05	
33	5.817265e-09	1.800004e+00	1.800030e+00	2.546717e-05	
34	5.941257e-09	1.799992e+00	1.800010e+00	2.763825e-06	
35	5.995421e-09	1.799998e+00	1.800018e+00	-4.30647e-05	
36	6.050649e-09	1.799987e+00	1.799993e+00	-1.34188e-04	
37	6.117953e-09	1.800017e+00	1.800024e+00	-1.04955e-05	
38	6.192209e-09	1.800002e+00	1.800001e+00	-7.01091e-05	
39	6.266490e-09	1.800026e+00	1.800029e+00	4.329931e-05	
40	6.342750e-09	1.799998e+00	1.799997e+00	-6.86722e-05	
41	6.418532e-09	1.800022e+00	1.800025e+00	4.403130e-05	
42	6.549450e-09	1.799996e+00	1.799994e+00	-5.58656e-05	
43	6.686428e-09	1.800019e+00	1.800021e+00	5.197532e-05	
44	6.883433e-09	1.799991e+00	1.799989e+00	-5.31454e-05	
45	7.126137e-09	1.800014e+00	1.800016e+00	5.267632e-05	
46	7.611544e-09	1.799988e+00	1.799986e+00	-5.28043e-05	
47	8.190404e-09	1.800012e+00	1.800014e+00	5.276788e-05	
48	8.266490e-09	1.799988e+00	1.799986e+00	-5.26504e-05	
49	8.359530e-09	1.800000e+00	1.800000e+00	-2.52907e-08	
50	8.545610e-09	1.800000e+00	1.800000e+00	2.432988e-08	
51	8.917769e-09	1.800000e+00	1.800000e+00	-2.48205e-08	
52	9.266490e-09	1.800000e+00	1.800000e+00	2.468868e-08	
53	9.340922e-09	1.800000e+00	1.800000e+00	-4.95153e-11	
54	9.489786e-09	1.800000e+00	1.800000e+00	-2.97495e-11	

Index   time            m.x11.xsc1.msky m.x11.xsc1.msky m.x11.xsc2.msky 
--------------------------------------------------------------------------------
55	9.787513e-09	1.800000e+00	1.800000e+00	-1.20972e-11	
56	1.038297e-08	1.800000e+00	1.800000e+00	-1.07103e-11	
57	1.157388e-08	1.800000e+00	1.800000e+00	7.318902e-12	
58	1.395570e-08	1.800000e+00	1.800000e+00	-3.36702e-12	
59	1.871934e-08	1.800000e+00	1.800000e+00	8.869708e-12	
60	2.824663e-08	1.800000e+00	1.800000e+00	-6.31272e-12	
61	4.730120e-08	1.800000e+00	1.800000e+00	7.235980e-12	
62	6.730120e-08	1.800000e+00	1.800000e+00	-6.99264e-12	
63	8.730120e-08	1.800000e+00	1.800000e+00	7.170298e-12	
64	1.050000e-07	1.800000e+00	1.800000e+00	-7.13397e-12	
65	1.051948e-07	1.800002e+00	1.800002e+00	1.524099e-07	
66	1.055844e-07	1.800001e+00	1.800001e+00	-1.70518e-07	
67	1.061580e-07	1.800001e+00	1.800001e+00	1.336988e-07	
68	1.067393e-07	1.800001e+00	1.800001e+00	-7.75964e-08	
69	1.073362e-07	1.800002e+00	1.800002e+00	1.087095e-07	
70	1.080352e-07	1.800001e+00	1.800001e+00	-1.04254e-07	
71	1.086839e-07	1.800000e+00	1.800000e+00	6.255693e-08	
72	1.094686e-07	1.800000e+00	1.800000e+00	-6.50616e-08	
73	1.100000e-07	1.800000e+00	1.800000e+00	5.902908e-08	
74	1.100973e-07	1.800000e+00	1.800000e+00	-4.64459e-09	
75	1.102920e-07	1.800000e+00	1.800000e+00	1.952129e-09	
76	1.106814e-07	1.800000e+00	1.800000e+00	-1.91597e-09	
77	1.114601e-07	1.800000e+00	1.800000e+00	1.872832e-09	
78	1.130175e-07	1.800000e+00	1.800000e+00	-1.87967e-09	
79	1.161323e-07	1.800000e+00	1.800000e+00	1.856588e-09	
80	1.223620e-07	1.800000e+00	1.800000e+00	-1.87067e-09	
81	1.348214e-07	1.800000e+00	1.800000e+00	1.848527e-09	
82	1.548214e-07	1.800000e+00	1.800000e+00	-1.86642e-09	
83	1.748214e-07	1.800000e+00	1.800000e+00	1.850573e-09	
84	1.948214e-07	1.800000e+00	1.800000e+00	-1.86237e-09	
85	1.950000e-07	1.800000e+00	1.800000e+00	1.689501e-09	
86	1.952756e-07	1.800000e+00	1.800000e+00	5.800257e-12	
87	1.958269e-07	1.800000e+00	1.800000e+00	-4.99440e-11	
88	1.967616e-07	1.800000e+00	1.800000e+00	5.421466e-12	
89	1.986309e-07	1.800000e+00	1.800000e+00	-1.41444e-11	
90	2.000000e-07	1.800000e+00	1.800000e+00	5.285391e-12	
91	2.003739e-07	1.800000e+00	1.800000e+00	-4.21148e-12	
92	2.011216e-07	1.800000e+00	1.800000e+00	-4.44081e-12	
93	2.026171e-07	1.800000e+00	1.800000e+00	-4.15120e-12	
94	2.056081e-07	1.800000e+00	1.800000e+00	-4.32094e-12	
95	2.115900e-07	1.800000e+00	1.800000e+00	-3.92631e-12	
96	2.235538e-07	1.800000e+00	1.800000e+00	-3.90204e-12	
97	2.435538e-07	1.800000e+00	1.800000e+00	-3.27252e-12	
